* T-Spice 6.02 Simulation	Sat May 08 23:00:52 2010	D:\KUDRET\çalýþmalar\vlsý\layout\proje\and gate.spc  (CAZM)
* Command line: tspice -o D:\KUDRET\çalýþmalar\vlsý\layout\proje\and gate.out D:\KUDRET\çalýþmalar\vlsý\layout\proje\and gate.spc 
* T-Spice Win32 6.02.20000302.11:47:10
* Operating System: Windows NT/95

*SEDIT: Alter blocks = 0

* Device and node counts:
*             MOSFETs - 6                 MOSFET geometries - 6       
*                BJTs - 0                             JFETs - 0       
*             MESFETs - 0                            Diodes - 0       
*          Capacitors - 0                         Resistors - 0       
*           Inductors - 0                  Mutual inductors - 0       
*  Transmission lines - 0        Coupled transmission lines - 0       
*     Voltage sources - 3                   Current sources - 0       
*                VCVS - 0                              VCCS - 0       
*                CCVS - 0                              CCCS - 0       
*    V-control switch - 0                  I-control switch - 0       
*       Macro devices - 0        Functional model instances - 0       
*         Subcircuits - 0              Subcircuit instances - 0       
*   Independent nodes - 6                    Boundary nodes - 4       
*         Total nodes - 10      


*SEDIT: Alter=0
*SEDIT: Analysis types DCOP 1 ACMODEL 1 AC 0 TRANSIENT 1 TRANSFER 0 NOISE 0 

* BEGIN NON-GRAPHICAL DATA

DC ANALYSIS
v(out) =   4.8010e-007
v(7) =   4.8199e-002
v(5) =   3.3000e+000
v(6) =   3.7785e-003
v(1) =   3.3000e+000
v(10) =   3.0710e+000
v(Vdd) =   3.3000e+000
v(in2) =   0.0000e+000
v(in1) =   0.0000e+000
i(vgiris1) =   0.0000e+000
i(vgiris2) =   0.0000e+000
i(vbes) =  -1.0097e-009

* END NON-GRAPHICAL DATA

* BEGIN NON-GRAPHICAL DATA

AC SMALL-SIGNAL MODELS
             M1           M2           M3           M4           M5          
MODEL        PMOS         PMOS         PMOS         NMOS         NMOS        
TYPE         PMOS         PMOS         PMOS         NMOS         NMOS        
ID           -8.45e-010   -6.13e-015   -4.01e-012    8.45e-010    3.96e-012  
VGS          -2.06e-009   -3.30e+000   -3.30e+000    3.30e+000   -4.82e-002  
VDS          -3.30e+000   -3.14e-012   -2.06e-009    4.80e-007    3.25e+000  
VBS          -2.29e-001   -2.29e-001   -2.29e-001    3.78e-003   -4.44e-002  
VTH          -3.99e-001   -4.00e-001   -4.00e-001    4.78e-001    4.65e-001  
VDSAT         3.49e-002    2.22e+000    2.22e+000    1.64e+000    3.58e-002  
RS            0.00e+000    0.00e+000    0.00e+000    0.00e+000    0.00e+000  
RD            0.00e+000    0.00e+000    0.00e+000    0.00e+000    0.00e+000  
GM            1.86e-008    8.74e-016    5.72e-013   -3.65e-011    1.13e-010  
GDS           1.26e-010    1.95e-003    1.95e-003    1.76e-003    1.28e-012  
GMB           3.61e-009    6.87e-016    4.50e-013    6.27e-011    6.14e-012  
GBD           1.00e-014    1.13e-009    1.13e-009    2.99e-012    1.00e-014  
GBS           1.13e-009    1.13e-009    1.13e-009    2.99e-012    1.00e-014  
CGS           5.87e-015    1.24e-014    1.24e-014    4.67e-015    1.82e-015  
CGD           3.62e-015    1.14e-014    1.14e-014    4.42e-015    1.59e-015  
CGB           2.90e-015   -5.23e-016   -5.23e-016    1.40e-017    1.60e-015  
CBD           5.91e-015    2.07e-014    1.51e-014    7.34e-015    2.39e-015  
CBS           8.85e-015   -7.25e-016    4.82e-015    1.69e-015    7.13e-016  

             M6          
MODEL        NMOS        
TYPE         NMOS        
ID            3.96e-012  
VGS           0.00e+000  
VDS           4.82e-002  
VBS           3.78e-003  
VTH           4.78e-001  
VDSAT         3.54e-002  
RS            0.00e+000  
RD            0.00e+000  
GM            1.09e-010  
GDS           8.21e-011  
GMB           3.17e-010  
GBD           1.00e-014  
GBS           2.99e-012  
CGS           2.25e-015  
CGD           1.59e-015  
CGB           1.18e-015  
CBD           9.38e-016  
CBS           3.02e-015  

* END NON-GRAPHICAL DATA

*WEDIT: .tran   1e-011   2e-008
TRANSIENT ANALYSIS
Time<s>          v(out)<V>    v(in2)<V>    v(in1)<V>
   0.0000e+000  4.8010e-007  0.0000e+000  0.0000e+000
   6.9983e-012  5.9695e-001  2.3095e+000  2.3095e+000
   8.4991e-012  7.0692e-001  2.8047e+000  2.8047e+000
   9.2495e-012  7.5657e-001  3.0524e+000  3.0524e+000
   1.0000e-011  8.0627e-001  3.3000e+000  3.3000e+000
   1.2341e-011  6.1504e-001  3.3000e+000  3.3000e+000
   1.3511e-011  5.2476e-001  3.3000e+000  3.3000e+000
   2.2984e-011  1.6015e-002  3.3000e+000  3.3000e+000
   3.2984e-011 -9.9468e-002  3.3000e+000  3.3000e+000
   4.2984e-011 -6.9242e-002  3.3000e+000  3.3000e+000
   5.2984e-011 -8.9067e-002  3.3000e+000  3.3000e+000
   6.2984e-011 -1.4891e-001  3.3000e+000  3.3000e+000
   7.2984e-011 -1.8156e-001  3.3000e+000  3.3000e+000
   8.2984e-011 -1.7419e-001  3.3000e+000  3.3000e+000
   9.2984e-011 -1.6527e-001  3.3000e+000  3.3000e+000
   1.0298e-010 -1.7599e-001  3.3000e+000  3.3000e+000
   1.1298e-010 -1.5710e-001  3.3000e+000  3.3000e+000
   1.2298e-010 -1.0135e-001  3.3000e+000  3.3000e+000
   1.3298e-010 -2.0833e-002  3.3000e+000  3.3000e+000
   1.4298e-010  7.3633e-002  3.3000e+000  3.3000e+000
   1.5298e-010  1.9533e-001  3.3000e+000  3.3000e+000
   1.6298e-010  3.6750e-001  3.3000e+000  3.3000e+000
   1.7298e-010  6.4841e-001  3.3000e+000  3.3000e+000
   1.8298e-010  1.0726e+000  3.3000e+000  3.3000e+000
   1.9298e-010  1.6037e+000  3.3000e+000  3.3000e+000
   2.0298e-010  2.1731e+000  3.3000e+000  3.3000e+000
   2.1298e-010  2.6263e+000  3.3000e+000  3.3000e+000
   2.2298e-010  2.8766e+000  3.3000e+000  3.3000e+000
   2.3298e-010  3.0029e+000  3.3000e+000  3.3000e+000
   2.4298e-010  3.0754e+000  3.3000e+000  3.3000e+000
   2.5298e-010  3.1316e+000  3.3000e+000  3.3000e+000
   2.6298e-010  3.1756e+000  3.3000e+000  3.3000e+000
   2.7298e-010  3.2049e+000  3.3000e+000  3.3000e+000
   2.8298e-010  3.2222e+000  3.3000e+000  3.3000e+000
   2.9298e-010  3.2340e+000  3.3000e+000  3.3000e+000
   3.0298e-010  3.2440e+000  3.3000e+000  3.3000e+000
   3.1298e-010  3.2528e+000  3.3000e+000  3.3000e+000
   3.2298e-010  3.2594e+000  3.3000e+000  3.3000e+000
   3.3298e-010  3.2650e+000  3.3000e+000  3.3000e+000
   3.4298e-010  3.2698e+000  3.3000e+000  3.3000e+000
   3.5298e-010  3.2740e+000  3.3000e+000  3.3000e+000
   3.6298e-010  3.2776e+000  3.3000e+000  3.3000e+000
   3.7298e-010  3.2807e+000  3.3000e+000  3.3000e+000
   3.8298e-010  3.2834e+000  3.3000e+000  3.3000e+000
   3.9298e-010  3.2856e+000  3.3000e+000  3.3000e+000
   4.0298e-010  3.2876e+000  3.3000e+000  3.3000e+000
   4.1298e-010  3.2893e+000  3.3000e+000  3.3000e+000
   4.2298e-010  3.2907e+000  3.3000e+000  3.3000e+000
   4.3298e-010  3.2920e+000  3.3000e+000  3.3000e+000
   4.4298e-010  3.2930e+000  3.3000e+000  3.3000e+000
   4.5298e-010  3.2939e+000  3.3000e+000  3.3000e+000
   4.6298e-010  3.2947e+000  3.3000e+000  3.3000e+000
   4.7298e-010  3.2954e+000  3.3000e+000  3.3000e+000
   4.8298e-010  3.2960e+000  3.3000e+000  3.3000e+000
   4.9298e-010  3.2965e+000  3.3000e+000  3.3000e+000
   5.0298e-010  3.2969e+000  3.3000e+000  3.3000e+000
   5.1298e-010  3.2973e+000  3.3000e+000  3.3000e+000
   5.2298e-010  3.2976e+000  3.3000e+000  3.3000e+000
   5.3298e-010  3.2979e+000  3.3000e+000  3.3000e+000
   5.4298e-010  3.2982e+000  3.3000e+000  3.3000e+000
   5.5298e-010  3.2984e+000  3.3000e+000  3.3000e+000
   5.6298e-010  3.2986e+000  3.3000e+000  3.3000e+000
   5.7298e-010  3.2987e+000  3.3000e+000  3.3000e+000
   5.8298e-010  3.2989e+000  3.3000e+000  3.3000e+000
   5.9298e-010  3.2990e+000  3.3000e+000  3.3000e+000
   6.0298e-010  3.2991e+000  3.3000e+000  3.3000e+000
   6.1298e-010  3.2992e+000  3.3000e+000  3.3000e+000
   6.2298e-010  3.2993e+000  3.3000e+000  3.3000e+000
   6.3298e-010  3.2993e+000  3.3000e+000  3.3000e+000
   6.4298e-010  3.2994e+000  3.3000e+000  3.3000e+000
   6.5298e-010  3.2995e+000  3.3000e+000  3.3000e+000
   6.6298e-010  3.2995e+000  3.3000e+000  3.3000e+000
   6.7298e-010  3.2995e+000  3.3000e+000  3.3000e+000
   6.8298e-010  3.2996e+000  3.3000e+000  3.3000e+000
   6.9298e-010  3.2996e+000  3.3000e+000  3.3000e+000
   7.0298e-010  3.2996e+000  3.3000e+000  3.3000e+000
   7.1298e-010  3.2997e+000  3.3000e+000  3.3000e+000
   7.2298e-010  3.2997e+000  3.3000e+000  3.3000e+000
   7.3298e-010  3.2997e+000  3.3000e+000  3.3000e+000
   7.4298e-010  3.2997e+000  3.3000e+000  3.3000e+000
   7.5298e-010  3.2997e+000  3.3000e+000  3.3000e+000
   7.6298e-010  3.2998e+000  3.3000e+000  3.3000e+000
   7.7298e-010  3.2998e+000  3.3000e+000  3.3000e+000
   7.8298e-010  3.2998e+000  3.3000e+000  3.3000e+000
   7.9298e-010  3.2998e+000  3.3000e+000  3.3000e+000
   8.0298e-010  3.2998e+000  3.3000e+000  3.3000e+000
   8.1298e-010  3.2998e+000  3.3000e+000  3.3000e+000
   8.2298e-010  3.2998e+000  3.3000e+000  3.3000e+000
   8.3298e-010  3.2998e+000  3.3000e+000  3.3000e+000
   8.4298e-010  3.2998e+000  3.3000e+000  3.3000e+000
   8.5298e-010  3.2998e+000  3.3000e+000  3.3000e+000
   8.6298e-010  3.2998e+000  3.3000e+000  3.3000e+000
   8.7298e-010  3.2998e+000  3.3000e+000  3.3000e+000
   8.8298e-010  3.2999e+000  3.3000e+000  3.3000e+000
   8.9298e-010  3.2999e+000  3.3000e+000  3.3000e+000
   9.0298e-010  3.2999e+000  3.3000e+000  3.3000e+000
   9.1298e-010  3.2999e+000  3.3000e+000  3.3000e+000
   9.2298e-010  3.2999e+000  3.3000e+000  3.3000e+000
   9.3298e-010  3.2999e+000  3.3000e+000  3.3000e+000
   9.4298e-010  3.2999e+000  3.3000e+000  3.3000e+000
   9.5298e-010  3.2999e+000  3.3000e+000  3.3000e+000
   9.6298e-010  3.2999e+000  3.3000e+000  3.3000e+000
   9.7298e-010  3.2999e+000  3.3000e+000  3.3000e+000
   9.8298e-010  3.2999e+000  3.3000e+000  3.3000e+000
   9.9298e-010  3.2999e+000  3.3000e+000  3.3000e+000
  1.00298e-009  3.2999e+000  3.3000e+000  3.3000e+000
  1.01298e-009  3.2999e+000  3.3000e+000  3.3000e+000
  1.02298e-009  3.2999e+000  3.3000e+000  3.3000e+000
  1.03298e-009  3.2999e+000  3.3000e+000  3.3000e+000
  1.04298e-009  3.2999e+000  3.3000e+000  3.3000e+000
  1.05298e-009  3.2999e+000  3.3000e+000  3.3000e+000
  1.06298e-009  3.2999e+000  3.3000e+000  3.3000e+000
  1.07298e-009  3.2999e+000  3.3000e+000  3.3000e+000
  1.08298e-009  3.2999e+000  3.3000e+000  3.3000e+000
  1.09298e-009  3.2999e+000  3.3000e+000  3.3000e+000
  1.10298e-009  3.2999e+000  3.3000e+000  3.3000e+000
  1.11298e-009  3.2999e+000  3.3000e+000  3.3000e+000
  1.12298e-009  3.2999e+000  3.3000e+000  3.3000e+000
  1.13298e-009  3.2999e+000  3.3000e+000  3.3000e+000
  1.14298e-009  3.2999e+000  3.3000e+000  3.3000e+000
  1.15298e-009  3.2999e+000  3.3000e+000  3.3000e+000
  1.16298e-009  3.2999e+000  3.3000e+000  3.3000e+000
  1.17298e-009  3.2999e+000  3.3000e+000  3.3000e+000
  1.18298e-009  3.2999e+000  3.3000e+000  3.3000e+000
  1.19298e-009  3.2999e+000  3.3000e+000  3.3000e+000
  1.20298e-009  3.2999e+000  3.3000e+000  3.3000e+000
  1.21298e-009  3.2999e+000  3.3000e+000  3.3000e+000
  1.22298e-009  3.2999e+000  3.3000e+000  3.3000e+000
  1.23298e-009  3.2999e+000  3.3000e+000  3.3000e+000
  1.24298e-009  3.2999e+000  3.3000e+000  3.3000e+000
  1.25298e-009  3.2999e+000  3.3000e+000  3.3000e+000
  1.26298e-009  3.2999e+000  3.3000e+000  3.3000e+000
  1.27298e-009  3.2999e+000  3.3000e+000  3.3000e+000
  1.28298e-009  3.2999e+000  3.3000e+000  3.3000e+000
  1.29298e-009  3.2999e+000  3.3000e+000  3.3000e+000
  1.30298e-009  3.2999e+000  3.3000e+000  3.3000e+000
  1.31298e-009  3.2999e+000  3.3000e+000  3.3000e+000
  1.32298e-009  3.2999e+000  3.3000e+000  3.3000e+000
  1.33298e-009  3.2999e+000  3.3000e+000  3.3000e+000
  1.34298e-009  3.2999e+000  3.3000e+000  3.3000e+000
  1.35298e-009  3.2999e+000  3.3000e+000  3.3000e+000
  1.36298e-009  3.2999e+000  3.3000e+000  3.3000e+000
  1.37298e-009  3.2999e+000  3.3000e+000  3.3000e+000
  1.38298e-009  3.2999e+000  3.3000e+000  3.3000e+000
  1.39298e-009  3.2999e+000  3.3000e+000  3.3000e+000
  1.40298e-009  3.2999e+000  3.3000e+000  3.3000e+000
  1.41298e-009  3.2999e+000  3.3000e+000  3.3000e+000
  1.42298e-009  3.2999e+000  3.3000e+000  3.3000e+000
  1.43298e-009  3.2999e+000  3.3000e+000  3.3000e+000
  1.44298e-009  3.2999e+000  3.3000e+000  3.3000e+000
  1.45298e-009  3.2999e+000  3.3000e+000  3.3000e+000
  1.46298e-009  3.2999e+000  3.3000e+000  3.3000e+000
  1.47298e-009  3.2999e+000  3.3000e+000  3.3000e+000
  1.48298e-009  3.2999e+000  3.3000e+000  3.3000e+000
  1.49298e-009  3.2999e+000  3.3000e+000  3.3000e+000
  1.50298e-009  3.3000e+000  3.3000e+000  3.3000e+000
  1.51000e-009  3.3000e+000  3.3000e+000  3.3000e+000
  1.52000e-009  3.1261e+000  3.3000e+000  0.0000e+000
  1.52500e-009  3.3382e+000  3.3000e+000  0.0000e+000
  1.53500e-009  3.6012e+000  3.3000e+000  0.0000e+000
  1.54500e-009  3.6527e+000  3.3000e+000  0.0000e+000
  1.55500e-009  3.5797e+000  3.3000e+000  0.0000e+000
  1.56500e-009  3.4502e+000  3.3000e+000  0.0000e+000
  1.57499e-009  3.2797e+000  3.3000e+000  0.0000e+000
  1.58499e-009  3.0527e+000  3.3000e+000  0.0000e+000
  1.59499e-009  2.6186e+000  3.3000e+000  0.0000e+000
  1.60499e-009  1.9698e+000  3.3000e+000  0.0000e+000
  1.61499e-009  1.1971e+000  3.3000e+000  0.0000e+000
  1.62499e-009  5.6368e-001  3.3000e+000  0.0000e+000
  1.63499e-009  2.4621e-001  3.3000e+000  0.0000e+000
  1.64499e-009  1.3940e-001  3.3000e+000  0.0000e+000
  1.65499e-009  1.0745e-001  3.3000e+000  0.0000e+000
  1.66499e-009  7.3569e-002  3.3000e+000  0.0000e+000
  1.67499e-009  3.9237e-002  3.3000e+000  0.0000e+000
  1.68499e-009  2.1221e-002  3.3000e+000  0.0000e+000
  1.69499e-009  1.7434e-002  3.3000e+000  0.0000e+000
  1.70499e-009  1.3424e-002  3.3000e+000  0.0000e+000
  1.71499e-009  1.0035e-002  3.3000e+000  0.0000e+000
  1.72499e-009  7.3978e-003  3.3000e+000  0.0000e+000
  1.73499e-009  5.4216e-003  3.3000e+000  0.0000e+000
  1.74499e-009  3.9666e-003  3.3000e+000  0.0000e+000
  1.75499e-009  2.9053e-003  3.3000e+000  0.0000e+000
  1.76499e-009  2.1344e-003  3.3000e+000  0.0000e+000
  1.77499e-009  1.5820e-003  3.3000e+000  0.0000e+000
  1.78499e-009  1.1697e-003  3.3000e+000  0.0000e+000
  1.79499e-009  8.6717e-004  3.3000e+000  0.0000e+000
  1.80499e-009  6.4693e-004  3.3000e+000  0.0000e+000
  1.81499e-009  4.8713e-004  3.3000e+000  0.0000e+000
  1.82499e-009  3.7124e-004  3.3000e+000  0.0000e+000
  1.83499e-009  2.8707e-004  3.3000e+000  0.0000e+000
  1.84499e-009  2.2574e-004  3.3000e+000  0.0000e+000
  1.85499e-009  1.8085e-004  3.3000e+000  0.0000e+000
  1.86499e-009  1.4780e-004  3.3000e+000  0.0000e+000
  1.87499e-009  1.2327e-004  3.3000e+000  0.0000e+000
  1.88499e-009  1.0489e-004  3.3000e+000  0.0000e+000
  1.89499e-009  9.0962e-005  3.3000e+000  0.0000e+000
  1.90499e-009  8.0255e-005  3.3000e+000  0.0000e+000
  1.91499e-009  7.1893e-005  3.3000e+000  0.0000e+000
  1.92500e-009  6.5247e-005  3.3000e+000  0.0000e+000
  1.93500e-009  5.9861e-005  3.3000e+000  0.0000e+000
  1.94500e-009  5.5411e-005  3.3000e+000  0.0000e+000
  1.95500e-009  5.1658e-005  3.3000e+000  0.0000e+000
  1.96500e-009  4.8434e-005  3.3000e+000  0.0000e+000
  1.97500e-009  4.5614e-005  3.3000e+000  0.0000e+000
  1.98500e-009  4.3108e-005  3.3000e+000  0.0000e+000
  1.99500e-009  4.0849e-005  3.3000e+000  0.0000e+000
  2.00500e-009  3.8791e-005  3.3000e+000  0.0000e+000
  2.01500e-009  3.6895e-005  3.3000e+000  0.0000e+000
  2.02500e-009  3.5136e-005  3.3000e+000  0.0000e+000
  2.03500e-009  3.3493e-005  3.3000e+000  0.0000e+000
  2.04500e-009  3.1951e-005  3.3000e+000  0.0000e+000
  2.05500e-009  3.0496e-005  3.3000e+000  0.0000e+000
  2.06500e-009  2.9121e-005  3.3000e+000  0.0000e+000
  2.07500e-009  2.7816e-005  3.3000e+000  0.0000e+000
  2.08500e-009  2.6576e-005  3.3000e+000  0.0000e+000
  2.09500e-009  2.5396e-005  3.3000e+000  0.0000e+000
  2.10500e-009  2.4271e-005  3.3000e+000  0.0000e+000
  2.11500e-009  2.3197e-005  3.3000e+000  0.0000e+000
  2.12500e-009  2.2171e-005  3.3000e+000  0.0000e+000
  2.13500e-009  2.1190e-005  3.3000e+000  0.0000e+000
  2.14500e-009  2.0252e-005  3.3000e+000  0.0000e+000
  2.15500e-009  1.9354e-005  3.3000e+000  0.0000e+000
  2.16500e-009  1.8494e-005  3.3000e+000  0.0000e+000
  2.17500e-009  1.7669e-005  3.3000e+000  0.0000e+000
  2.18500e-009  1.6879e-005  3.3000e+000  0.0000e+000
  2.19500e-009  1.6121e-005  3.3000e+000  0.0000e+000
  2.20500e-009  1.5394e-005  3.3000e+000  0.0000e+000
  2.21500e-009  1.4696e-005  3.3000e+000  0.0000e+000
  2.22500e-009  1.4026e-005  3.3000e+000  0.0000e+000
  2.23500e-009  1.3383e-005  3.3000e+000  0.0000e+000
  2.24500e-009  1.2765e-005  3.3000e+000  0.0000e+000
  2.25500e-009  1.2171e-005  3.3000e+000  0.0000e+000
  2.26500e-009  1.1600e-005  3.3000e+000  0.0000e+000
  2.27500e-009  1.1052e-005  3.3000e+000  0.0000e+000
  2.28500e-009  1.0524e-005  3.3000e+000  0.0000e+000
  2.29500e-009  1.0017e-005  3.3000e+000  0.0000e+000
  2.30500e-009  9.5287e-006  3.3000e+000  0.0000e+000
  2.31500e-009  9.0590e-006  3.3000e+000  0.0000e+000
  2.32500e-009  8.6071e-006  3.3000e+000  0.0000e+000
  2.33500e-009  8.1720e-006  3.3000e+000  0.0000e+000
  2.34500e-009  7.7531e-006  3.3000e+000  0.0000e+000
  2.35500e-009  7.3498e-006  3.3000e+000  0.0000e+000
  2.36500e-009  6.9614e-006  3.3000e+000  0.0000e+000
  2.37500e-009  6.5872e-006  3.3000e+000  0.0000e+000
  2.38500e-009  6.5554e-006  3.3000e+000  0.0000e+000
  2.39500e-009  6.6911e-006  3.3000e+000  0.0000e+000
  2.40500e-009  6.2817e-006  3.3000e+000  0.0000e+000
  2.41500e-009  5.7819e-006  3.3000e+000  0.0000e+000
  2.42500e-009  5.3359e-006  3.3000e+000  0.0000e+000
  2.43500e-009  4.9751e-006  3.3000e+000  0.0000e+000
  2.44500e-009  4.6939e-006  3.3000e+000  0.0000e+000
  2.45500e-009  4.4771e-006  3.3000e+000  0.0000e+000
  2.46500e-009  4.3093e-006  3.3000e+000  0.0000e+000
  2.47500e-009  4.1778e-006  3.3000e+000  0.0000e+000
  2.48500e-009  4.0463e-006  3.3000e+000  0.0000e+000
  2.49500e-009  3.9678e-006  3.3000e+000  0.0000e+000
  2.50500e-009  3.8893e-006  3.3000e+000  0.0000e+000
  2.51500e-009  3.8349e-006  3.3000e+000  0.0000e+000
  2.52500e-009  3.7805e-006  3.3000e+000  0.0000e+000
  2.53500e-009  3.7367e-006  3.3000e+000  0.0000e+000
  2.54500e-009  3.6929e-006  3.3000e+000  0.0000e+000
  2.55500e-009  3.6541e-006  3.3000e+000  0.0000e+000
  2.56500e-009  3.6152e-006  3.3000e+000  0.0000e+000
  2.57500e-009  3.5789e-006  3.3000e+000  0.0000e+000
  2.58500e-009  3.5426e-006  3.3000e+000  0.0000e+000
  2.59500e-009  3.5077e-006  3.3000e+000  0.0000e+000
  2.60500e-009  3.4728e-006  3.3000e+000  0.0000e+000
  2.61500e-009  3.4388e-006  3.3000e+000  0.0000e+000
  2.62500e-009  3.4049e-006  3.3000e+000  0.0000e+000
  2.63500e-009  3.3717e-006  3.3000e+000  0.0000e+000
  2.64500e-009  3.3386e-006  3.3000e+000  0.0000e+000
  2.65500e-009  3.3061e-006  3.3000e+000  0.0000e+000
  2.66500e-009  3.2736e-006  3.3000e+000  0.0000e+000
  2.67500e-009  3.2417e-006  3.3000e+000  0.0000e+000
  2.68500e-009  3.2098e-006  3.3000e+000  0.0000e+000
  2.69500e-009  3.1785e-006  3.3000e+000  0.0000e+000
  2.70500e-009  3.1472e-006  3.3000e+000  0.0000e+000
  2.71500e-009  3.1164e-006  3.3000e+000  0.0000e+000
  2.72500e-009  3.0857e-006  3.3000e+000  0.0000e+000
  2.73500e-009  3.0555e-006  3.3000e+000  0.0000e+000
  2.74500e-009  3.0253e-006  3.3000e+000  0.0000e+000
  2.75500e-009  2.9956e-006  3.3000e+000  0.0000e+000
  2.76500e-009  2.9660e-006  3.3000e+000  0.0000e+000
  2.77500e-009  2.9163e-006  3.3000e+000  0.0000e+000
  2.78500e-009  2.8667e-006  3.3000e+000  0.0000e+000
  2.79500e-009  2.8554e-006  3.3000e+000  0.0000e+000
