* T-Spice 6.02 Simulation	Thu May 20 15:41:31 2010	D:\KUDRET\çalýþmalar\vlsý\layout\proje\or.spc  (CAZM)
* Command line: tspice -o D:\KUDRET\çalýþmalar\vlsý\layout\proje\or.out D:\KUDRET\çalýþmalar\vlsý\layout\proje\or.spc 
* T-Spice Win32 6.02.20000302.11:47:10
* Operating System: Windows NT/95

*SEDIT: Alter blocks = 0

* Device and node counts:
*             MOSFETs - 6                 MOSFET geometries - 6       
*                BJTs - 0                             JFETs - 0       
*             MESFETs - 0                            Diodes - 0       
*          Capacitors - 0                         Resistors - 0       
*           Inductors - 0                  Mutual inductors - 0       
*  Transmission lines - 0        Coupled transmission lines - 0       
*     Voltage sources - 3                   Current sources - 0       
*                VCVS - 0                              VCCS - 0       
*                CCVS - 0                              CCCS - 0       
*    V-control switch - 0                  I-control switch - 0       
*       Macro devices - 0        Functional model instances - 0       
*         Subcircuits - 0              Subcircuit instances - 0       
*   Independent nodes - 6                    Boundary nodes - 4       
*         Total nodes - 10      


*SEDIT: Alter=0
*SEDIT: Analysis types DCOP 1 ACMODEL 1 AC 0 TRANSIENT 1 TRANSFER 0 NOISE 0 

* BEGIN NON-GRAPHICAL DATA

DC ANALYSIS
v(out) =   4.9175e-008
v(2) =   3.3000e+000
v(10) =   3.0710e+000
v(6) =   7.7075e-003
v(5) =   3.2835e-001
v(9) =   3.3000e+000
v(Vdd) =   3.3000e+000
v(in2) =   0.0000e+000
v(in1) =   0.0000e+000
i(vgiris1) =   0.0000e+000
i(vgiris2) =   0.0000e+000
i(vbes) =  -4.8609e-010

* END NON-GRAPHICAL DATA

* BEGIN NON-GRAPHICAL DATA

AC SMALL-SIGNAL MODELS
             M1           M2           M3           M4           M5          
MODEL        PMOS         PMOS         PMOS         NMOS         NMOS        
TYPE         PMOS         PMOS         PMOS         NMOS         NMOS        
ID           -2.47e-010   -7.77e-011   -7.77e-011    2.47e-010   -3.21e-015  
VGS          -2.25e-007   -3.30e+000   -3.30e+000    3.30e+000   -3.30e+000  
VDS          -3.30e+000   -1.12e-007   -1.12e-007    4.92e-008   -2.97e+000  
VBS          -2.29e-001   -2.29e-001   -2.29e-001    7.71e-003   -3.29e+000  
VTH          -3.99e-001   -4.00e-001   -4.00e-001    4.78e-001    5.46e-001  
VDSAT         3.43e-002    2.18e+000    2.18e+000    1.65e+000    3.78e-002  
RS            0.00e+000    0.00e+000    0.00e+000    0.00e+000    0.00e+000  
RD            0.00e+000    0.00e+000    0.00e+000    0.00e+000    0.00e+000  
GM            5.46e-009    1.22e-011    1.22e-011   -1.32e-011   -7.44e-014  
GDS           3.67e-011    6.92e-004    6.92e-004    5.03e-003    8.41e-014  
GMB           1.05e-009    8.61e-012    8.62e-012    1.82e-011   -8.72e-015  
GBD           1.00e-014    1.13e-009    1.13e-009    2.99e-012    1.00e-014  
GBS           1.13e-009    1.13e-009    1.13e-009    2.99e-012    1.00e-014  
CGS           1.93e-015    4.06e-015    4.06e-015    1.42e-014    4.79e-015  
CGD           1.20e-015    3.78e-015    3.78e-015    1.33e-014    5.07e-015  
CGB           9.80e-016   -1.24e-016   -1.24e-016   -5.56e-017    5.48e-015  
CBD           2.12e-015    7.23e-015    4.19e-015    2.09e-014    8.78e-015  
CBS           3.22e-015   -1.27e-015    1.77e-015    4.03e-015    3.18e-015  

             M6          
MODEL        NMOS        
TYPE         NMOS        
ID            7.76e-011  
VGS           0.00e+000  
VDS           3.30e+000  
VBS           7.71e-003  
VTH           4.51e-001  
VDSAT         3.54e-002  
RS            0.00e+000  
RD            0.00e+000  
GM            2.25e-009  
GDS           2.31e-011  
GMB           4.69e-009  
GBD           1.00e-014  
GBS           2.99e-012  
CGS           6.81e-015  
CGD           4.79e-015  
CGB           3.44e-015  
CBD           3.18e-015  
CBS           8.03e-015  

* END NON-GRAPHICAL DATA

*WEDIT: .tran   3e-011 1.2e-007
TRANSIENT ANALYSIS
Time<s>          v(out)<V>    v(in2)<V>    v(in1)<V>
   0.0000e+000  4.9175e-008  0.0000e+000  0.0000e+000
   4.1485e-012  1.0056e-001  4.5634e-001  4.5634e-001
   7.3799e-012  1.6147e-001  8.1180e-001  8.1180e-001
   8.9956e-012  1.7491e-001  9.8953e-001  9.8953e-001
   1.5845e-011  1.3016e-001  1.7430e+000  1.7430e+000
   2.8573e-011 -3.9088e-002  3.1431e+000  3.1431e+000
   2.9999e-011 -4.6356e-002  3.3000e+000  3.3000e+000
   3.3673e-011 -1.6190e-001  3.3000e+000  3.3000e+000
   5.1267e-011 -3.0102e-001  3.3000e+000  3.3000e+000
   6.0065e-011 -2.3336e-001  3.3000e+000  3.3000e+000
   7.5419e-011 -1.1973e-001  3.3000e+000  3.3000e+000
   8.8541e-011  1.5914e-001  3.3000e+000  3.3000e+000
   1.0128e-010  6.5637e-001  3.3000e+000  3.3000e+000
   1.1881e-010  1.5186e+000  3.3000e+000  3.3000e+000
   1.3735e-010  2.3126e+000  3.3000e+000  3.3000e+000
   1.5769e-010  2.8150e+000  3.3000e+000  3.3000e+000
   1.8281e-010  3.0763e+000  3.3000e+000  3.3000e+000
   2.0813e-010  3.2198e+000  3.3000e+000  3.3000e+000
   2.3813e-010  3.2885e+000  3.3000e+000  3.3000e+000
   2.6813e-010  3.3066e+000  3.3000e+000  3.3000e+000
   2.9813e-010  3.3030e+000  3.3000e+000  3.3000e+000
   3.2813e-010  3.3014e+000  3.3000e+000  3.3000e+000
   3.5813e-010  3.3006e+000  3.3000e+000  3.3000e+000
   3.8813e-010  3.3002e+000  3.3000e+000  3.3000e+000
   4.1813e-010  3.3001e+000  3.3000e+000  3.3000e+000
   4.4813e-010  3.3000e+000  3.3000e+000  3.3000e+000
   4.7813e-010  3.2999e+000  3.3000e+000  3.3000e+000
   5.0813e-010  3.2999e+000  3.3000e+000  3.3000e+000
   5.3813e-010  3.2999e+000  3.3000e+000  3.3000e+000
   5.6813e-010  3.2999e+000  3.3000e+000  3.3000e+000
   5.9813e-010  3.2999e+000  3.3000e+000  3.3000e+000
   6.2813e-010  3.2999e+000  3.3000e+000  3.3000e+000
   6.5813e-010  3.2999e+000  3.3000e+000  3.3000e+000
   6.8813e-010  3.2999e+000  3.3000e+000  3.3000e+000
   7.1813e-010  3.2999e+000  3.3000e+000  3.3000e+000
   7.4813e-010  3.2999e+000  3.3000e+000  3.3000e+000
   7.7813e-010  3.3000e+000  3.3000e+000  3.3000e+000
   8.0813e-010  3.3000e+000  3.3000e+000  3.3000e+000
   8.3813e-010  3.3000e+000  3.3000e+000  3.3000e+000
   8.6813e-010  3.3000e+000  3.3000e+000  3.3000e+000
   8.9813e-010  3.3000e+000  3.3000e+000  3.3000e+000
   9.2813e-010  3.3000e+000  3.3000e+000  3.3000e+000
   9.5813e-010  3.3000e+000  3.3000e+000  3.3000e+000
   9.8813e-010  3.3000e+000  3.3000e+000  3.3000e+000
   1.0181e-009  3.3000e+000  3.3000e+000  3.3000e+000
   1.0481e-009  3.3000e+000  3.3000e+000  3.3000e+000
   1.0781e-009  3.3000e+000  3.3000e+000  3.3000e+000
   1.1081e-009  3.3000e+000  3.3000e+000  3.3000e+000
   1.1381e-009  3.3000e+000  3.3000e+000  3.3000e+000
   1.1681e-009  3.3000e+000  3.3000e+000  3.3000e+000
   1.1981e-009  3.3000e+000  3.3000e+000  3.3000e+000
   1.2281e-009  3.3000e+000  3.3000e+000  3.3000e+000
   1.2581e-009  3.3000e+000  3.3000e+000  3.3000e+000
   1.2881e-009  3.3000e+000  3.3000e+000  3.3000e+000
   1.3181e-009  3.3000e+000  3.3000e+000  3.3000e+000
   1.3481e-009  3.3000e+000  3.3000e+000  3.3000e+000
   1.3781e-009  3.3000e+000  3.3000e+000  3.3000e+000
   1.4081e-009  3.3000e+000  3.3000e+000  3.3000e+000
   1.4381e-009  3.3000e+000  3.3000e+000  3.3000e+000
   1.4681e-009  3.3000e+000  3.3000e+000  3.3000e+000
   1.4981e-009  3.3000e+000  3.3000e+000  3.3000e+000
   1.5281e-009  3.3000e+000  3.3000e+000  3.3000e+000
   1.5581e-009  3.3000e+000  3.3000e+000  3.3000e+000
   1.5881e-009  3.3000e+000  3.3000e+000  3.3000e+000
   1.6181e-009  3.3000e+000  3.3000e+000  3.3000e+000
   1.6481e-009  3.3000e+000  3.3000e+000  3.3000e+000
   1.6781e-009  3.3000e+000  3.3000e+000  3.3000e+000
   1.7081e-009  3.3000e+000  3.3000e+000  3.3000e+000
   1.7381e-009  3.3000e+000  3.3000e+000  3.3000e+000
   1.7681e-009  3.3000e+000  3.3000e+000  3.3000e+000
   1.7981e-009  3.3000e+000  3.3000e+000  3.3000e+000
   1.8281e-009  3.3000e+000  3.3000e+000  3.3000e+000
   1.8581e-009  3.3000e+000  3.3000e+000  3.3000e+000
   1.8881e-009  3.3000e+000  3.3000e+000  3.3000e+000
   1.9181e-009  3.3000e+000  3.3000e+000  3.3000e+000
   1.9481e-009  3.3000e+000  3.3000e+000  3.3000e+000
   1.9781e-009  3.3000e+000  3.3000e+000  3.3000e+000
   2.0081e-009  3.3000e+000  3.3000e+000  3.3000e+000
   2.0381e-009  3.3000e+000  3.3000e+000  3.3000e+000
   2.0681e-009  3.3000e+000  3.3000e+000  3.3000e+000
   2.0981e-009  3.3000e+000  3.3000e+000  3.3000e+000
   2.1281e-009  3.3000e+000  3.3000e+000  3.3000e+000
   2.1581e-009  3.3000e+000  3.3000e+000  3.3000e+000
   2.1881e-009  3.3000e+000  3.3000e+000  3.3000e+000
   2.2181e-009  3.3000e+000  3.3000e+000  3.3000e+000
   2.2481e-009  3.3000e+000  3.3000e+000  3.3000e+000
   2.2781e-009  3.3000e+000  3.3000e+000  3.3000e+000
   2.3081e-009  3.3000e+000  3.3000e+000  3.3000e+000
   2.3381e-009  3.3000e+000  3.3000e+000  3.3000e+000
   2.3681e-009  3.3000e+000  3.3000e+000  3.3000e+000
   2.3981e-009  3.3000e+000  3.3000e+000  3.3000e+000
   2.4281e-009  3.3000e+000  3.3000e+000  3.3000e+000
   2.4581e-009  3.3000e+000  3.3000e+000  3.3000e+000
   2.4881e-009  3.3000e+000  3.3000e+000  3.3000e+000
   2.5181e-009  3.3000e+000  3.3000e+000  3.3000e+000
   2.5481e-009  3.3000e+000  3.3000e+000  3.3000e+000
   2.5781e-009  3.3000e+000  3.3000e+000  3.3000e+000
   2.6081e-009  3.3000e+000  3.3000e+000  3.3000e+000
   2.6381e-009  3.3000e+000  3.3000e+000  3.3000e+000
   2.6681e-009  3.3000e+000  3.3000e+000  3.3000e+000
   2.6981e-009  3.3000e+000  3.3000e+000  3.3000e+000
   2.7281e-009  3.3000e+000  3.3000e+000  3.3000e+000
   2.7581e-009  3.3000e+000  3.3000e+000  3.3000e+000
   2.7881e-009  3.3000e+000  3.3000e+000  3.3000e+000
   2.8181e-009  3.3000e+000  3.3000e+000  3.3000e+000
   2.8481e-009  3.3000e+000  3.3000e+000  3.3000e+000
   2.8781e-009  3.3000e+000  3.3000e+000  3.3000e+000
   2.9081e-009  3.3000e+000  3.3000e+000  3.3000e+000
   2.9381e-009  3.3000e+000  3.3000e+000  3.3000e+000
   2.9681e-009  3.3000e+000  3.3000e+000  3.3000e+000
   2.9981e-009  3.3000e+000  3.3000e+000  3.3000e+000
  3.02813e-009  3.3000e+000  3.3000e+000  3.3000e+000
  3.05813e-009  3.3000e+000  3.3000e+000  3.3000e+000
  3.08813e-009  3.3000e+000  3.3000e+000  3.3000e+000
  3.11813e-009  3.3000e+000  3.3000e+000  3.3000e+000
  3.14813e-009  3.3000e+000  3.3000e+000  3.3000e+000
  3.17813e-009  3.3000e+000  3.3000e+000  3.3000e+000
  3.20813e-009  3.3000e+000  3.3000e+000  3.3000e+000
  3.23813e-009  3.3000e+000  3.3000e+000  3.3000e+000
  3.26813e-009  3.3000e+000  3.3000e+000  3.3000e+000
  3.29813e-009  3.3000e+000  3.3000e+000  3.3000e+000
  3.32813e-009  3.3000e+000  3.3000e+000  3.3000e+000
  3.35813e-009  3.3000e+000  3.3000e+000  3.3000e+000
  3.38813e-009  3.3000e+000  3.3000e+000  3.3000e+000
  3.41813e-009  3.3000e+000  3.3000e+000  3.3000e+000
  3.44813e-009  3.3000e+000  3.3000e+000  3.3000e+000
  3.47813e-009  3.3000e+000  3.3000e+000  3.3000e+000
  3.50813e-009  3.3000e+000  3.3000e+000  3.3000e+000
  3.53813e-009  3.3000e+000  3.3000e+000  3.3000e+000
  3.56813e-009  3.3000e+000  3.3000e+000  3.3000e+000
  3.59813e-009  3.3000e+000  3.3000e+000  3.3000e+000
  3.62813e-009  3.3000e+000  3.3000e+000  3.3000e+000
  3.65813e-009  3.3000e+000  3.3000e+000  3.3000e+000
  3.68813e-009  3.3000e+000  3.3000e+000  3.3000e+000
  3.71813e-009  3.3000e+000  3.3000e+000  3.3000e+000
  3.74813e-009  3.3000e+000  3.3000e+000  3.3000e+000
  3.77813e-009  3.3000e+000  3.3000e+000  3.3000e+000
  3.80813e-009  3.3000e+000  3.3000e+000  3.3000e+000
  3.83813e-009  3.3000e+000  3.3000e+000  3.3000e+000
  3.86813e-009  3.3000e+000  3.3000e+000  3.3000e+000
  3.89813e-009  3.3000e+000  3.3000e+000  3.3000e+000
  3.92813e-009  3.3000e+000  3.3000e+000  3.3000e+000
  3.95813e-009  3.3000e+000  3.3000e+000  3.3000e+000
  3.98813e-009  3.3000e+000  3.3000e+000  3.3000e+000
  4.01813e-009  3.3000e+000  3.3000e+000  3.3000e+000
  4.04813e-009  3.3000e+000  3.3000e+000  3.3000e+000
  4.07813e-009  3.3000e+000  3.3000e+000  3.3000e+000
  4.10813e-009  3.3000e+000  3.3000e+000  3.3000e+000
  4.13813e-009  3.3000e+000  3.3000e+000  3.3000e+000
  4.16813e-009  3.3000e+000  3.3000e+000  3.3000e+000
  4.19813e-009  3.3000e+000  3.3000e+000  3.3000e+000
  4.22813e-009  3.3000e+000  3.3000e+000  3.3000e+000
  4.25813e-009  3.3000e+000  3.3000e+000  3.3000e+000
  4.28813e-009  3.3000e+000  3.3000e+000  3.3000e+000
  4.31813e-009  3.3000e+000  3.3000e+000  3.3000e+000
  4.34813e-009  3.3000e+000  3.3000e+000  3.3000e+000
  4.37813e-009  3.3000e+000  3.3000e+000  3.3000e+000
  4.40813e-009  3.3000e+000  3.3000e+000  3.3000e+000
  4.43813e-009  3.3000e+000  3.3000e+000  3.3000e+000
  4.46813e-009  3.3000e+000  3.3000e+000  3.3000e+000
  4.49813e-009  3.3000e+000  3.3000e+000  3.3000e+000
  4.52813e-009  3.3000e+000  3.3000e+000  3.3000e+000
  4.55813e-009  3.3000e+000  3.3000e+000  3.3000e+000
  4.58813e-009  3.3000e+000  3.3000e+000  3.3000e+000
  4.61813e-009  3.3000e+000  3.3000e+000  3.3000e+000
  4.64813e-009  3.3000e+000  3.3000e+000  3.3000e+000
  4.67813e-009  3.3000e+000  3.3000e+000  3.3000e+000
  4.70813e-009  3.3000e+000  3.3000e+000  3.3000e+000
  4.73813e-009  3.3000e+000  3.3000e+000  3.3000e+000
  4.76813e-009  3.3000e+000  3.3000e+000  3.3000e+000
  4.79813e-009  3.3000e+000  3.3000e+000  3.3000e+000
  4.82813e-009  3.3000e+000  3.3000e+000  3.3000e+000
  4.85813e-009  3.3000e+000  3.3000e+000  3.3000e+000
  4.88813e-009  3.3000e+000  3.3000e+000  3.3000e+000
  4.91813e-009  3.3000e+000  3.3000e+000  3.3000e+000
  4.94813e-009  3.3000e+000  3.3000e+000  3.3000e+000
  4.97813e-009  3.3000e+000  3.3000e+000  3.3000e+000
  5.00813e-009  3.3000e+000  3.3000e+000  3.3000e+000
  5.03813e-009  3.3000e+000  3.3000e+000  3.3000e+000
  5.06813e-009  3.3000e+000  3.3000e+000  3.3000e+000
  5.09813e-009  3.3000e+000  3.3000e+000  3.3000e+000
  5.12813e-009  3.3000e+000  3.3000e+000  3.3000e+000
  5.15813e-009  3.3000e+000  3.3000e+000  3.3000e+000
  5.18813e-009  3.3000e+000  3.3000e+000  3.3000e+000
  5.21813e-009  3.3000e+000  3.3000e+000  3.3000e+000
  5.24813e-009  3.3000e+000  3.3000e+000  3.3000e+000
  5.27813e-009  3.3000e+000  3.3000e+000  3.3000e+000
  5.30813e-009  3.3000e+000  3.3000e+000  3.3000e+000
  5.33813e-009  3.3000e+000  3.3000e+000  3.3000e+000
  5.36813e-009  3.3000e+000  3.3000e+000  3.3000e+000
  5.39813e-009  3.3000e+000  3.3000e+000  3.3000e+000
  5.42813e-009  3.3000e+000  3.3000e+000  3.3000e+000
  5.45813e-009  3.3000e+000  3.3000e+000  3.3000e+000
  5.48813e-009  3.3000e+000  3.3000e+000  3.3000e+000
  5.51813e-009  3.3000e+000  3.3000e+000  3.3000e+000
  5.54813e-009  3.3000e+000  3.3000e+000  3.3000e+000
  5.57813e-009  3.3000e+000  3.3000e+000  3.3000e+000
  5.60813e-009  3.3000e+000  3.3000e+000  3.3000e+000
  5.63813e-009  3.3000e+000  3.3000e+000  3.3000e+000
  5.66813e-009  3.3000e+000  3.3000e+000  3.3000e+000
  5.69813e-009  3.3000e+000  3.3000e+000  3.3000e+000
  5.72813e-009  3.3000e+000  3.3000e+000  3.3000e+000
  5.75813e-009  3.3000e+000  3.3000e+000  3.3000e+000
  5.78813e-009  3.3000e+000  3.3000e+000  3.3000e+000
  5.81813e-009  3.3000e+000  3.3000e+000  3.3000e+000
  5.84813e-009  3.3000e+000  3.3000e+000  3.3000e+000
  5.87813e-009  3.3000e+000  3.3000e+000  3.3000e+000
  5.90813e-009  3.3000e+000  3.3000e+000  3.3000e+000
  5.93813e-009  3.3000e+000  3.3000e+000  3.3000e+000
  5.96813e-009  3.3000e+000  3.3000e+000  3.3000e+000
  5.99813e-009  3.3000e+000  3.3000e+000  3.3000e+000
  6.02813e-009  3.3000e+000  3.3000e+000  3.3000e+000
  6.05813e-009  3.3000e+000  3.3000e+000  3.3000e+000
  6.08813e-009  3.3000e+000  3.3000e+000  3.3000e+000
  6.11813e-009  3.3000e+000  3.3000e+000  3.3000e+000
  6.14813e-009  3.3000e+000  3.3000e+000  3.3000e+000
  6.17813e-009  3.3000e+000  3.3000e+000  3.3000e+000
  6.20813e-009  3.3000e+000  3.3000e+000  3.3000e+000
  6.23813e-009  3.3000e+000  3.3000e+000  3.3000e+000
  6.26813e-009  3.3000e+000  3.3000e+000  3.3000e+000
  6.29813e-009  3.3000e+000  3.3000e+000  3.3000e+000
  6.32813e-009  3.3000e+000  3.3000e+000  3.3000e+000
  6.35813e-009  3.3000e+000  3.3000e+000  3.3000e+000
  6.38813e-009  3.3000e+000  3.3000e+000  3.3000e+000
  6.41813e-009  3.3000e+000  3.3000e+000  3.3000e+000
  6.44813e-009  3.3000e+000  3.3000e+000  3.3000e+000
  6.47813e-009  3.3000e+000  3.3000e+000  3.3000e+000
  6.50813e-009  3.3000e+000  3.3000e+000  3.3000e+000
  6.53813e-009  3.3000e+000  3.3000e+000  3.3000e+000
  6.56813e-009  3.3000e+000  3.3000e+000  3.3000e+000
  6.59813e-009  3.3000e+000  3.3000e+000  3.3000e+000
  6.62813e-009  3.3000e+000  3.3000e+000  3.3000e+000
  6.65813e-009  3.3000e+000  3.3000e+000  3.3000e+000
  6.68813e-009  3.3000e+000  3.3000e+000  3.3000e+000
  6.71813e-009  3.3000e+000  3.3000e+000  3.3000e+000
  6.74813e-009  3.3000e+000  3.3000e+000  3.3000e+000
  6.77813e-009  3.3000e+000  3.3000e+000  3.3000e+000
  6.80813e-009  3.3000e+000  3.3000e+000  3.3000e+000
  6.83813e-009  3.3000e+000  3.3000e+000  3.3000e+000
  6.86813e-009  3.3000e+000  3.3000e+000  3.3000e+000
  6.89813e-009  3.3000e+000  3.3000e+000  3.3000e+000
  6.92813e-009  3.3000e+000  3.3000e+000  3.3000e+000
  6.95813e-009  3.3000e+000  3.3000e+000  3.3000e+000
  6.98813e-009  3.3000e+000  3.3000e+000  3.3000e+000
  7.01813e-009  3.3000e+000  3.3000e+000  3.3000e+000
  7.04813e-009  3.3000e+000  3.3000e+000  3.3000e+000
  7.07813e-009  3.3000e+000  3.3000e+000  3.3000e+000
  7.10813e-009  3.3000e+000  3.3000e+000  3.3000e+000
  7.13813e-009  3.3000e+000  3.3000e+000  3.3000e+000
  7.16813e-009  3.3000e+000  3.3000e+000  3.3000e+000
  7.19813e-009  3.3000e+000  3.3000e+000  3.3000e+000
  7.22813e-009  3.3000e+000  3.3000e+000  3.3000e+000
  7.25813e-009  3.3000e+000  3.3000e+000  3.3000e+000
  7.28813e-009  3.3000e+000  3.3000e+000  3.3000e+000
  7.31813e-009  3.3000e+000  3.3000e+000  3.3000e+000
  7.34813e-009  3.3000e+000  3.3000e+000  3.3000e+000
  7.37813e-009  3.3000e+000  3.3000e+000  3.3000e+000
  7.40813e-009  3.3000e+000  3.3000e+000  3.3000e+000
  7.43813e-009  3.3000e+000  3.3000e+000  3.3000e+000
  7.46813e-009  3.3000e+000  3.3000e+000  3.3000e+000
  7.49813e-009  3.3000e+000  3.3000e+000  3.3000e+000
  7.52813e-009  3.3000e+000  3.3000e+000  3.3000e+000
  7.55813e-009  3.3000e+000  3.3000e+000  3.3000e+000
  7.58813e-009  3.3000e+000  3.3000e+000  3.3000e+000
  7.61813e-009  3.3000e+000  3.3000e+000  3.3000e+000
  7.64813e-009  3.3000e+000  3.3000e+000  3.3000e+000
  7.67813e-009  3.3000e+000  3.3000e+000  3.3000e+000
  7.70813e-009  3.3000e+000  3.3000e+000  3.3000e+000
  7.73813e-009  3.3000e+000  3.3000e+000  3.3000e+000
  7.76813e-009  3.3000e+000  3.3000e+000  3.3000e+000
  7.79813e-009  3.3000e+000  3.3000e+000  3.3000e+000
  7.82813e-009  3.3000e+000  3.3000e+000  3.3000e+000
  7.85813e-009  3.3000e+000  3.3000e+000  3.3000e+000
  7.88813e-009  3.3000e+000  3.3000e+000  3.3000e+000
  7.91813e-009  3.3000e+000  3.3000e+000  3.3000e+000
  7.94813e-009  3.3000e+000  3.3000e+000  3.3000e+000
  7.97813e-009  3.3000e+000  3.3000e+000  3.3000e+000
  8.00813e-009  3.3000e+000  3.3000e+000  3.3000e+000
  8.03813e-009  3.3000e+000  3.3000e+000  3.3000e+000
  8.06813e-009  3.3000e+000  3.3000e+000  3.3000e+000
  8.09813e-009  3.3000e+000  3.3000e+000  3.3000e+000
  8.12813e-009  3.3000e+000  3.3000e+000  3.3000e+000
  8.15813e-009  3.3000e+000  3.3000e+000  3.3000e+000
  8.18813e-009  3.3000e+000  3.3000e+000  3.3000e+000
  8.21813e-009  3.3000e+000  3.3000e+000  3.3000e+000
  8.24813e-009  3.3000e+000  3.3000e+000  3.3000e+000
  8.27813e-009  3.3000e+000  3.3000e+000  3.3000e+000
